T40D0 592:970 SEGGER J-Link V6.44a Log File (0001ms, 2576ms total)
T40D0 592:970 DLL Compiled: Mar  8 2019 17:31:48 (0001ms, 2576ms total)
T40D0 592:970 Logging started @ 2019-05-17 12:10 (0001ms, 2576ms total)
T40D0 592:971 JLINK_SetWarnOutHandler(...) (0000ms, 2576ms total)
T40D0 592:971 JLINK_OpenEx(...)
Firmware: J-Link ARM V8 compiled Nov 28 2014 13:44:46
Hardware: V8.00
S/N: 788529405
Feature(s): RDI,FlashDL,FlashBP,JFlash,GDB
TELNET listener socket opened on port 19021Device "STM32F030K6" selected.WEBSRV 
Starting webserver (0014ms, 2590ms total)
T40D0 592:971 WEBSRV Webserver running on local port 19080 (0016ms, 2592ms total)
T40D0 592:971   returns O.K. (0016ms, 2592ms total)
T40D0 592:987 JLINK_GetEmuCaps()  returns 0xB9FF7BBF (0000ms, 2592ms total)
T40D0 592:987 JLINK_TIF_GetAvailable(...) (0000ms, 2592ms total)
T40D0 592:987 JLINK_SetErrorOutHandler(...) (0001ms, 2593ms total)
T40D0 592:988 JLINK_ExecCommand("ProjectFile = "F:\Soft_sdk\GD32E230_AMS32F030\Project\JLinkSettings.ini"", ...). Device "STM32F030K6" selected.  returns 0x00 (0004ms, 2597ms total)
T40D0 592:992 JLINK_ExecCommand("Device = STM32F030K6Tx", ...). Device "STM32F030K6" selected.  returns 0x00 (0001ms, 2598ms total)
T40D0 592:993 JLINK_ExecCommand("DisableConnectionTimeout", ...).   returns 0x01 (0000ms, 2598ms total)
T40D0 592:993 JLINK_GetHardwareVersion()  returns 0x13880 (0000ms, 2598ms total)
T40D0 592:993 JLINK_GetDLLVersion()  returns 64401 (0000ms, 2598ms total)
T40D0 592:993 JLINK_GetFirmwareString(...) (0000ms, 2598ms total)
T40D0 592:993 JLINK_GetDLLVersion()  returns 64401 (0000ms, 2598ms total)
T40D0 592:993 JLINK_GetCompileDateTime() (0000ms, 2598ms total)
T40D0 592:993 JLINK_GetFirmwareString(...) (0000ms, 2598ms total)
T40D0 592:993 JLINK_GetHardwareVersion()  returns 0x13880 (0001ms, 2599ms total)
T40D0 592:994 JLINK_TIF_Select(JLINKARM_TIF_SWD)  returns 0x00 (0000ms, 2599ms total)
T40D0 592:994 JLINK_SetSpeed(5000) (0000ms, 2599ms total)
T40D0 592:994 JLINK_GetId() >0x10B TIF>Found SW-DP with ID 0x0BB11477 >0x0D TIF> >0x28 TIF> >0x0D TIF> >0x28 TIF> >0x0D TIF> >0x28 TIF> >0x0D TIF> >0x28 TIF> >0x0D TIF> >0x21 TIF> >0x0D TIF> >0x28 TIF> >0x0D TIF> >0x28 TIF> >0x0D TIF> >0x28 TIF> >0x0D TIF> >0x21 TIF> >0x0D TIF> >0x21 TIF> >0x0D TIF> >0x28 TIF> >0x0D TIF> >0x21 TIF> >0x0D TIF> >0x21 TIF> >0x0D TIF> >0x28 TIF> >0x0D TIF> >0x21 TIF> >0x0D TIF> >0x21 TIF> >0x0D TIF> >0x28 TIF> >0x0D TIF> >0x28 TIF> >0x0D TIF> >0x28 TIF> >0x0D TIF> >0x21 TIF>
 >0x0D TIF> >0x21 TIF> >0x0D TIF> >0x28 TIF> >0x0D TIF> >0x28 TIF> >0x0D TIF> >0x28 TIF> >0x0D TIF> >0x21 TIF> >0x0D TIF> >0x21 TIF> >0x0D TIF> >0x28 TIF> >0x0D TIF> >0x21 TIF> >0x0D TIF> >0x21 TIF> >0x0D TIF> >0x28 TIF> >0x0D TIF> >0x21 TIF> >0x0D TIF> >0x21 TIF> >0x0D TIF> >0x28 TIF> >0x0D TIF> >0x21 TIF> >0x0D TIF> >0x21 TIF> >0x0D TIF> >0x28 TIF> >0x0D TIF> >0x21 TIF> >0x0D TIF> >0x21 TIF> >0x0D TIF> >0x28 TIF> >0x0D TIF> >0x21 TIF> >0x0D TIF> >0x21 TIF> >0x10B TIF>Found SW-DP with ID 0x0BB11477
 >0x0D TIF> >0x28 TIF> >0x0D TIF> >0x28 TIF> >0x0D TIF> >0x28 TIF> >0x0D TIF> >0x28 TIF> >0x0D TIF> >0x21 TIF> >0x0D TIF> >0x28 TIF>Scanning AP map to find all available APs >0x0D TIF> >0x28 TIF> >0x0D TIF> >0x21 TIF> >0x0D TIF> >0x21 TIF> >0x0D TIF> >0x28 TIF> >0x0D TIF> >0x21 TIF> >0x0D TIF> >0x21 TIF>AP[1]: Stopped AP scan as end of AP map has been reachedAP[0]: AHB-AP (IDR: 0x04770021)Iterating through AP map to find AHB-AP to use >0x42 TIF> >0x28 TIF> >0x0D TIF> >0x28 TIF> >0x0D TIF> >0x21 TIF>
 >0x0D TIF> >0x21 TIF> >0x42 TIF> >0x28 TIF> >0x0D TIF> >0x28 TIF> >0x0D TIF> >0x28 TIF> >0x0D TIF> >0x21 TIF> >0x0D TIF> >0x21 TIF>AP[0]: Core foundAP[0]: AHB-AP ROM base: 0xE00FF000 >0x0D TIF> >0x28 TIF> >0x0D TIF> >0x28 TIF> >0x0D TIF> >0x28 TIF> >0x0D TIF> >0x21 TIF> >0x0D TIF> >0x21 TIF>CPUID register: 0x410CC200. Implementer code: 0x41 (ARM)Found Cortex-M0 r0p0, Little endian. -- Max. mem block: 0x00002408 -- CPU_ReadMem(4 bytes @ 0xE000EDF0) -- CPU_WriteMem(4 bytes @ 0xE000EDF0)
 -- CPU_ReadMem(4 bytes @ 0xE0002000)FPUnit: 4 code (BP) slots and 0 literal slots -- CPU_ReadMem(4 bytes @ 0xE000EDFC) -- CPU_WriteMem(4 bytes @ 0xE000EDFC) -- CPU_ReadMem(4 bytes @ 0xE0001000) -- CPU_WriteMem(4 bytes @ 0xE0001000)CoreSight components:ROMTbl[0] @ E00FF000 -- CPU_ReadMem(16 bytes @ 0xE00FF000) -- CPU_ReadMem(16 bytes @ 0xE000EFF0) -- CPU_ReadMem(16 bytes @ 0xE000EFE0)ROMTbl[0][0]: E000E000, CID: B105E00D, PID: 000BB008 SCS -- CPU_ReadMem(16 bytes @ 0xE0001FF0)
 -- CPU_ReadMem(16 bytes @ 0xE0001FE0)ROMTbl[0][1]: E0001000, CID: B105E00D, PID: 000BB00A DWT -- CPU_ReadMem(16 bytes @ 0xE0002FF0) -- CPU_ReadMem(16 bytes @ 0xE0002FE0)ROMTbl[0][2]: E0002000, CID: B105E00D, PID: 000BB00B FPB >0x0D TIF> >0x21 TIF>  returns 0x0BB11477 (0141ms, 2740ms total)
T40D0 593:135 JLINK_GetDLLVersion()  returns 64401 (0000ms, 2740ms total)
T40D0 593:135 JLINK_CORE_GetFound()  returns 0x60000FF (0000ms, 2740ms total)
T40D0 593:135 JLINK_GetDebugInfo(0x100 = JLINKARM_ROM_TABLE_ADDR_INDEX) -- Value=0xE00FF000  returns 0x00 (0000ms, 2740ms total)
T40D0 593:135 JLINK_GetDebugInfo(0x100 = JLINKARM_ROM_TABLE_ADDR_INDEX) -- Value=0xE00FF000  returns 0x00 (0000ms, 2740ms total)
T40D0 593:135 JLINK_GetDebugInfo(0x101 = JLINKARM_DEBUG_INFO_ETM_ADDR_INDEX) -- Value=0x00000000  returns 0x00 (0000ms, 2740ms total)
T40D0 593:135 JLINK_ReadMemEx(0xE0041FF0, 0x0010 Bytes, ..., Flags = 0x02000004) -- CPU_ReadMem(16 bytes @ 0xE0041FF0) - Data: 00 00 00 00 00 00 00 00 00 00 00 00 00 00 00 00  returns 0x10 (0001ms, 2741ms total)
T40D0 593:136 JLINK_GetDebugInfo(0x102 = JLINKARM_DEBUG_INFO_MTB_ADDR_INDEX) -- Value=0x00000000  returns 0x00 (0000ms, 2741ms total)
T40D0 593:136 JLINK_GetDebugInfo(0x103 = JLINKARM_DEBUG_INFO_TPIU_ADDR_INDEX) -- Value=0x00000000  returns 0x00 (0000ms, 2741ms total)
T40D0 593:136 JLINK_ReadMemEx(0xE0040FF0, 0x0010 Bytes, ..., Flags = 0x02000004) -- CPU_ReadMem(16 bytes @ 0xE0040FF0) - Data: 00 00 00 00 00 00 00 00 00 00 00 00 00 00 00 00  returns 0x10 (0001ms, 2742ms total)
T40D0 593:137 JLINK_GetDebugInfo(0x104 = JLINKARM_DEBUG_INFO_ITM_ADDR_INDEX) -- Value=0xE0000000  returns 0x00 (0000ms, 2742ms total)
T40D0 593:137 JLINK_GetDebugInfo(0x105 = JLINKARM_DEBUG_INFO_DWT_ADDR_INDEX) -- Value=0xE0001000  returns 0x00 (0000ms, 2742ms total)
T40D0 593:137 JLINK_GetDebugInfo(0x106 = JLINKARM_DEBUG_INFO_FPB_ADDR_INDEX) -- Value=0xE0002000  returns 0x00 (0000ms, 2742ms total)
T40D0 593:137 JLINK_GetDebugInfo(0x107 = JLINKARM_DEBUG_INFO_NVIC_ADDR_INDEX) -- Value=0xE000E000  returns 0x00 (0000ms, 2742ms total)
T40D0 593:137 JLINK_GetDebugInfo(0x10C = JLINKARM_DEBUG_INFO_DBG_ADDR_INDEX) -- Value=0xE000EDF0  returns 0x00 (0000ms, 2742ms total)
T40D0 593:137 JLINK_GetDebugInfo(0x01 = Unknown) -- Value=0x00000000  returns 0x00 (0000ms, 2742ms total)
T40D0 593:137 JLINK_ReadMemU32(0xE000ED00, 0x0001 Items, ...) -- CPU_ReadMem(4 bytes @ 0xE000ED00) - Data: 00 C2 0C 41  returns 1 (0001ms, 2743ms total)
T40D0 593:138 JLINK_GetDebugInfo(0x10F = JLINKARM_DEBUG_INFO_HAS_CORTEX_M_SECURITY_EXT_INDEX) -- Value=0x00000000  returns 0x00 (0000ms, 2743ms total)
T40D0 593:138 JLINK_SetResetType(JLINKARM_CM3_RESET_TYPE_NORMAL)  returns JLINKARM_CM3_RESET_TYPE_NORMAL (0000ms, 2743ms total)
T40D0 593:138 JLINK_Reset() -- CPU is running -- CPU_WriteMem(4 bytes @ 0xE000EDF0) -- CPU is running -- CPU_WriteMem(4 bytes @ 0xE000EDFC)Reset: Halt core after reset via DEMCR.VC_CORERESET. >0x35 TIF>Reset: Reset device via AIRCR.SYSRESETREQ. -- CPU is running -- CPU_WriteMem(4 bytes @ 0xE000ED0C) >0x0D TIF> >0x28 TIF> -- CPU_ReadMem(4 bytes @ 0xE000EDF0) -- CPU_ReadMem(4 bytes @ 0xE000EDF0) -- CPU is running -- CPU_WriteMem(4 bytes @ 0xE000EDF0) -- CPU is running -- CPU_WriteMem(4 bytes @ 0xE000EDFC)
 -- CPU_ReadMem(4 bytes @ 0xE000EDF0) -- CPU_WriteMem(4 bytes @ 0xE0002000) -- CPU_ReadMem(4 bytes @ 0xE000EDFC) -- CPU_ReadMem(4 bytes @ 0xE0001000) -- CPU_WriteMem(4 bytes @ 0xE0001000) (0066ms, 2809ms total)
T40D0 593:204 JLINK_ReadReg(R15 (PC))  returns 0x080000C8 (0000ms, 2809ms total)
T40D0 593:204 JLINK_ReadReg(XPSR)  returns 0xC1000000 (0000ms, 2809ms total)
T40D0 593:204 JLINK_Halt()  returns 0x00 (0000ms, 2809ms total)
T40D0 593:204 JLINK_ReadMemU32(0xE000EDF0, 0x0001 Items, ...) -- CPU_ReadMem(4 bytes @ 0xE000EDF0) - Data: 03 00 03 00  returns 1 (0001ms, 2810ms total)
T40D0 593:205 JLINK_WriteU32(0xE000EDF0, 0xA05F0003) -- CPU_WriteMem(4 bytes @ 0xE000EDF0)  returns 0 (0001ms, 2811ms total)
T40D0 593:206 JLINK_WriteU32(0xE000EDFC, 0x01000000) -- CPU_WriteMem(4 bytes @ 0xE000EDFC)  returns 0 (0000ms, 2811ms total)
T40D0 593:206 JLINK_GetHWStatus(...)  returns 0x00 (0001ms, 2812ms total)
T40D0 593:207 JLINK_GetNumBPUnits(Type = 0xFFFFFF00)  returns 0x04 (0000ms, 2812ms total)
T40D0 593:207 JLINK_GetNumBPUnits(Type = 0xF0)  returns 0x2000 (0000ms, 2812ms total)
T40D0 593:207 JLINK_GetNumWPUnits()  returns 0x02 (0000ms, 2812ms total)
T40D0 593:207 JLINK_GetSpeed()  returns 0xFA0 (0000ms, 2812ms total)
T40D0 593:207 JLINK_ReadMemU32(0xE000E004, 0x0001 Items, ...) -- CPU_ReadMem(4 bytes @ 0xE000E004) - Data: 00 00 00 00  returns 1 (0001ms, 2813ms total)
T40D0 593:208 JLINK_ReadReg(R15 (PC))  returns 0x080000C8 (0000ms, 2813ms total)
T40D0 593:208 JLINK_ReadReg(XPSR)  returns 0xC1000000 (0000ms, 2813ms total)
T40D0 593:287 JLINK_SetResetType(JLINKARM_CM3_RESET_TYPE_NORMAL)  returns JLINKARM_CM3_RESET_TYPE_NORMAL (0000ms, 2813ms total)
T40D0 593:287 JLINK_Reset() -- CPU_WriteMem(4 bytes @ 0xE000EDF0) -- CPU_WriteMem(4 bytes @ 0xE000EDFC)Reset: Halt core after reset via DEMCR.VC_CORERESET. >0x35 TIF>Reset: Reset device via AIRCR.SYSRESETREQ. -- CPU_WriteMem(4 bytes @ 0xE000ED0C) >0x0D TIF> >0x28 TIF> -- CPU_ReadMem(4 bytes @ 0xE000EDF0) -- CPU_ReadMem(4 bytes @ 0xE000EDF0) -- CPU_WriteMem(4 bytes @ 0xE000EDF0) -- CPU_WriteMem(4 bytes @ 0xE000EDFC) -- CPU_ReadMem(4 bytes @ 0xE000EDF0) -- CPU_WriteMem(4 bytes @ 0xE0002000)
 -- CPU_ReadMem(4 bytes @ 0xE000EDFC) -- CPU_ReadMem(4 bytes @ 0xE0001000) -- CPU_WriteMem(4 bytes @ 0xE0001000) (0065ms, 2878ms total)
T40D0 593:353 JLINK_ReadReg(R15 (PC))  returns 0x080000C8 (0000ms, 2878ms total)
T40D0 593:353 JLINK_ReadReg(XPSR)  returns 0xC1000000 (0000ms, 2878ms total)
T40D0 593:353 JLINK_ReadMemEx(0x080000C8, 0x003C Bytes, ..., Flags = 0x02000000) -- CPU_ReadMem(128 bytes @ 0x080000C0) -- Updating C cache (128 bytes @ 0x080000C0) -- Read from C cache (60 bytes @ 0x080000C8) - Data: 0C 48 80 F3 08 88 0C 48 01 68 09 0E 0B 4A 91 42 ...  returns 0x3C (0001ms, 2879ms total)
T40D0 593:354 JLINK_ReadMemEx(0x080000C8, 0x0002 Bytes, ..., Flags = 0x02000000) -- Read from C cache (2 bytes @ 0x080000C8) - Data: 0C 48  returns 0x02 (0000ms, 2879ms total)
T40D0 593:355 JLINK_ReadMemEx(0x080000CA, 0x0002 Bytes, ..., Flags = 0x02000000) -- Read from C cache (2 bytes @ 0x080000CA) - Data: 80 F3  returns 0x02 (0000ms, 2879ms total)
T40D0 593:499 JLINK_ReadMemEx(0x48000000, 0x0014 Bytes, ..., Flags = 0x02000004) -- CPU_ReadMem(20 bytes @ 0x48000000) - Data: 00 00 00 28 00 00 00 28 00 00 00 28 00 00 00 28 ...  returns 0x14 (0000ms, 2879ms total)
T40D0 593:499 JLINK_ReadMemEx(0x48000014, 0x0004 Bytes, ..., Flags = 0x02000004) -- CPU_ReadMem(4 bytes @ 0x48000014) - Data: 00 00 00 28  returns 0x04 (0001ms, 2880ms total)
T40D0 593:500 JLINK_ReadMemEx(0x4800001C, 0x0008 Bytes, ..., Flags = 0x02000004) -- CPU_ReadMem(8 bytes @ 0x4800001C) - Data: 00 00 00 28 00 00 00 28  returns 0x08 (0000ms, 2880ms total)
T40D0 593:500 JLINK_ReadMemEx(0x48000024, 0x0004 Bytes, ..., Flags = 0x02000004) -- CPU_ReadMem(4 bytes @ 0x48000024) - Data: 00 00 00 28  returns 0x04 (0001ms, 2881ms total)
T40D0 595:461 JLINK_ReadMemEx(0x080000C8, 0x003C Bytes, ..., Flags = 0x02000000) -- Read from C cache (60 bytes @ 0x080000C8) - Data: 0C 48 80 F3 08 88 0C 48 01 68 09 0E 0B 4A 91 42 ...  returns 0x3C (0001ms, 2882ms total)
T40D0 595:462 JLINK_ReadMemEx(0x080000C8, 0x0002 Bytes, ..., Flags = 0x02000000) -- Read from C cache (2 bytes @ 0x080000C8) - Data: 0C 48  returns 0x02 (0000ms, 2882ms total)
T40D0 595:462 JLINK_ReadMemEx(0x080000CA, 0x0002 Bytes, ..., Flags = 0x02000000) -- Read from C cache (2 bytes @ 0x080000CA) - Data: 80 F3  returns 0x02 (0000ms, 2882ms total)
T39BC 595:591 JLINK_ReadMemEx(0x080000C8, 0x0002 Bytes, ..., Flags = 0x02000000) -- Read from C cache (2 bytes @ 0x080000C8) - Data: 0C 48  returns 0x02 (0001ms, 2883ms total)
T39BC 595:592 JLINK_SetBPEx(Addr = 0x08002D58, Type = 0xFFFFFFF2)  returns 0x00000001 (0000ms, 2883ms total)
T39BC 595:592 JLINK_Go() -- CPU_WriteMem(4 bytes @ 0xE0002000) -- CPU_ReadMem(4 bytes @ 0xE0001000) -- CPU_WriteMem(4 bytes @ 0xE0001000) -- CPU_WriteMem(4 bytes @ 0xE0002008) -- CPU_WriteMem(4 bytes @ 0xE000200C) -- CPU_WriteMem(4 bytes @ 0xE0002010) -- CPU_WriteMem(4 bytes @ 0xE0002014) -- CPU_WriteMem(4 bytes @ 0xE0001004) (0003ms, 2886ms total)
T39BC 595:696 JLINK_IsHalted()  returns TRUE (0002ms, 2888ms total)
T39BC 595:698 JLINK_Halt()  returns 0x00 (0000ms, 2886ms total)
T39BC 595:698 JLINK_IsHalted()  returns TRUE (0000ms, 2886ms total)
T39BC 595:698 JLINK_IsHalted()  returns TRUE (0000ms, 2886ms total)
T39BC 595:698 JLINK_IsHalted()  returns TRUE (0000ms, 2886ms total)
T39BC 595:698 JLINK_ReadReg(R15 (PC))  returns 0x08002D58 (0000ms, 2886ms total)
T39BC 595:698 JLINK_ReadReg(XPSR)  returns 0x61000000 (0000ms, 2886ms total)
T39BC 595:698 JLINK_ClrBPEx(BPHandle = 0x00000001)  returns 0x00 (0000ms, 2886ms total)
T39BC 595:698 JLINK_ReadMemU32(0xE000ED30, 0x0001 Items, ...) -- CPU_ReadMem(4 bytes @ 0xE000ED30) - Data: 03 00 00 00  returns 1 (0001ms, 2887ms total)
T39BC 595:699 JLINK_ReadMemU32(0xE0001028, 0x0001 Items, ...) -- CPU_ReadMem(4 bytes @ 0xE0001028) - Data: 00 00 00 00  returns 1 (0000ms, 2887ms total)
T39BC 595:699 JLINK_ReadMemU32(0xE0001038, 0x0001 Items, ...) -- CPU_ReadMem(4 bytes @ 0xE0001038) - Data: 00 00 00 00  returns 1 (0001ms, 2888ms total)
T39BC 595:700 JLINK_ReadReg(R0)  returns 0x08002D59 (0000ms, 2888ms total)
T39BC 595:700 JLINK_ReadReg(R1)  returns 0x20000618 (0000ms, 2888ms total)
T39BC 595:700 JLINK_ReadReg(R2)  returns 0x00000000 (0000ms, 2888ms total)
T39BC 595:700 JLINK_ReadReg(R3)  returns 0x080029FF (0000ms, 2888ms total)
T39BC 595:700 JLINK_ReadReg(R4)  returns 0x080032A0 (0000ms, 2888ms total)
T39BC 595:700 JLINK_ReadReg(R5)  returns 0x00000001 (0000ms, 2888ms total)
T39BC 595:700 JLINK_ReadReg(R6)  returns 0x080032A0 (0000ms, 2888ms total)
T39BC 595:700 JLINK_ReadReg(R7)  returns 0xFFFFFFFF (0000ms, 2888ms total)
T39BC 595:700 JLINK_ReadReg(R8)  returns 0xFFFFFFFF (0000ms, 2888ms total)
T39BC 595:700 JLINK_ReadReg(R9)  returns 0xFFFFFFFF (0000ms, 2888ms total)
T39BC 595:700 JLINK_ReadReg(R10)  returns 0xFFFFFFFF (0001ms, 2889ms total)
T39BC 595:701 JLINK_ReadReg(R11)  returns 0xFFFFFFFF (0000ms, 2889ms total)
T39BC 595:701 JLINK_ReadReg(R12)  returns 0xFFFFFFFF (0000ms, 2889ms total)
T39BC 595:701 JLINK_ReadReg(R13 (SP))  returns 0x20000618 (0000ms, 2889ms total)
T39BC 595:701 JLINK_ReadReg(R14)  returns 0x08000215 (0000ms, 2889ms total)
T39BC 595:701 JLINK_ReadReg(R15 (PC))  returns 0x08002D58 (0000ms, 2889ms total)
T39BC 595:701 JLINK_ReadReg(XPSR)  returns 0x61000000 (0000ms, 2889ms total)
T39BC 595:701 JLINK_ReadReg(MSP)  returns 0x20000618 (0000ms, 2889ms total)
T39BC 595:701 JLINK_ReadReg(PSP)  returns 0xFFFFFFFC (0000ms, 2889ms total)
T39BC 595:701 JLINK_ReadReg(CFBP)  returns 0x00000000 (0000ms, 2889ms total)
T40D0 595:709 JLINK_ReadMemEx(0x48000000, 0x0014 Bytes, ..., Flags = 0x02000004) -- CPU_ReadMem(20 bytes @ 0x48000000) - Data: 00 00 00 28 00 00 00 28 00 00 00 28 00 00 00 28 ...  returns 0x14 (0000ms, 2889ms total)
T40D0 595:710 JLINK_ReadMemEx(0x48000014, 0x0004 Bytes, ..., Flags = 0x02000004) -- CPU_ReadMem(4 bytes @ 0x48000014) - Data: 00 00 00 28  returns 0x04 (0000ms, 2890ms total)
T40D0 595:710 JLINK_ReadMemEx(0x4800001C, 0x0008 Bytes, ..., Flags = 0x02000004) -- CPU_ReadMem(8 bytes @ 0x4800001C) - Data: 00 00 00 28 00 00 00 28  returns 0x08 (0000ms, 2890ms total)
T40D0 595:710 JLINK_ReadMemEx(0x48000024, 0x0004 Bytes, ..., Flags = 0x02000004) -- CPU_ReadMem(4 bytes @ 0x48000024) - Data: 00 00 00 28  returns 0x04 (0001ms, 2891ms total)
T40D0 595:732 JLINK_ReadMemEx(0x08002D58, 0x003C Bytes, ..., Flags = 0x02000000) -- CPU_ReadMem(128 bytes @ 0x08002D40) -- Updating C cache (128 bytes @ 0x08002D40) -- Read from C cache (60 bytes @ 0x08002D58) - Data: FD F7 A0 FC FD F7 EC FB FC E7 00 00 00 04 00 48 ...  returns 0x3C (0001ms, 2892ms total)
T40D0 595:733 JLINK_ReadMemEx(0x08002D58, 0x0002 Bytes, ..., Flags = 0x02000000) -- Read from C cache (2 bytes @ 0x08002D58) - Data: FD F7  returns 0x02 (0001ms, 2893ms total)
T40D0 595:734 JLINK_ReadMemEx(0x08002D5A, 0x0002 Bytes, ..., Flags = 0x02000000) -- Read from C cache (2 bytes @ 0x08002D5A) - Data: A0 FC  returns 0x02 (0000ms, 2893ms total)
T39BC 597:751 JLINK_ReadMemEx(0x08002D58, 0x0002 Bytes, ..., Flags = 0x02000000) -- Read from C cache (2 bytes @ 0x08002D58) - Data: FD F7  returns 0x02 (0001ms, 2894ms total)
T39BC 597:752 JLINK_Step() -- Read from C cache (2 bytes @ 0x08002D58) -- CPU_ReadMem(4 bytes @ 0xE000ED18) -- CPU_WriteMem(4 bytes @ 0xE000ED18) -- CPU_ReadMem(4 bytes @ 0xE000ED18) -- CPU_WriteMem(4 bytes @ 0xE000ED18) -- CPU_ReadMem(4 bytes @ 0xE0001004) -- Read from C cache (2 bytes @ 0x08002D5A) -- Simulated  returns 0x00 (0002ms, 2896ms total)
T39BC 597:754 JLINK_ReadReg(R15 (PC))  returns 0x0800069C (0000ms, 2896ms total)
T39BC 597:754 JLINK_ReadReg(XPSR)  returns 0x61000000 (0000ms, 2896ms total)
T39BC 597:754 JLINK_ReadReg(R0)  returns 0x08002D59 (0000ms, 2896ms total)
T39BC 597:754 JLINK_ReadReg(R1)  returns 0x20000618 (0000ms, 2896ms total)
T39BC 597:754 JLINK_ReadReg(R2)  returns 0x00000000 (0000ms, 2896ms total)
T39BC 597:754 JLINK_ReadReg(R3)  returns 0x080029FF (0000ms, 2896ms total)
T39BC 597:754 JLINK_ReadReg(R4)  returns 0x080032A0 (0000ms, 2896ms total)
T39BC 597:754 JLINK_ReadReg(R5)  returns 0x00000001 (0000ms, 2896ms total)
T39BC 597:754 JLINK_ReadReg(R6)  returns 0x080032A0 (0001ms, 2897ms total)
T39BC 597:755 JLINK_ReadReg(R7)  returns 0xFFFFFFFF (0000ms, 2897ms total)
T39BC 597:755 JLINK_ReadReg(R8)  returns 0xFFFFFFFF (0000ms, 2897ms total)
T39BC 597:755 JLINK_ReadReg(R9)  returns 0xFFFFFFFF (0000ms, 2897ms total)
T39BC 597:755 JLINK_ReadReg(R10)  returns 0xFFFFFFFF (0000ms, 2897ms total)
T39BC 597:755 JLINK_ReadReg(R11)  returns 0xFFFFFFFF (0000ms, 2897ms total)
T39BC 597:755 JLINK_ReadReg(R12)  returns 0xFFFFFFFF (0000ms, 2897ms total)
T39BC 597:755 JLINK_ReadReg(R13 (SP))  returns 0x20000618 (0000ms, 2897ms total)
T39BC 597:755 JLINK_ReadReg(R14)  returns 0x08002D5D (0000ms, 2897ms total)
T39BC 597:755 JLINK_ReadReg(R15 (PC))  returns 0x0800069C (0000ms, 2897ms total)
T39BC 597:755 JLINK_ReadReg(XPSR)  returns 0x61000000 (0000ms, 2897ms total)
T39BC 597:755 JLINK_ReadReg(MSP)  returns 0x20000618 (0000ms, 2897ms total)
T39BC 597:755 JLINK_ReadReg(PSP)  returns 0xFFFFFFFC (0000ms, 2897ms total)
T39BC 597:755 JLINK_ReadReg(CFBP)  returns 0x00000000 (0000ms, 2897ms total)
T40D0 597:760 JLINK_ReadMemEx(0x48000000, 0x0014 Bytes, ..., Flags = 0x02000004) -- CPU_ReadMem(20 bytes @ 0x48000000) - Data: 00 00 00 28 00 00 00 28 00 00 00 28 00 00 00 28 ...  returns 0x14 (0000ms, 2897ms total)
T40D0 597:760 JLINK_ReadMemEx(0x48000014, 0x0004 Bytes, ..., Flags = 0x02000004) -- CPU_ReadMem(4 bytes @ 0x48000014) - Data: 00 00 00 28  returns 0x04 (0001ms, 2898ms total)
T40D0 597:761 JLINK_ReadMemEx(0x4800001C, 0x0008 Bytes, ..., Flags = 0x02000004) -- CPU_ReadMem(8 bytes @ 0x4800001C) - Data: 00 00 00 28 00 00 00 28  returns 0x08 (0000ms, 2898ms total)
T40D0 597:761 JLINK_ReadMemEx(0x48000024, 0x0004 Bytes, ..., Flags = 0x02000004) -- CPU_ReadMem(4 bytes @ 0x48000024) - Data: 00 00 00 28  returns 0x04 (0000ms, 2898ms total)
T40D0 597:764 JLINK_ReadMemEx(0x0800069C, 0x003C Bytes, ..., Flags = 0x02000000) -- CPU_ReadMem(128 bytes @ 0x08000680) -- Updating C cache (128 bytes @ 0x08000680) -- Read from C cache (60 bytes @ 0x0800069C) - Data: 10 B5 E1 20 40 02 02 F0 D1 F8 7D 20 C0 00 01 F0 ...  returns 0x3C (0001ms, 2899ms total)
T40D0 597:765 JLINK_ReadMemEx(0x0800069C, 0x0002 Bytes, ..., Flags = 0x02000000) -- Read from C cache (2 bytes @ 0x0800069C) - Data: 10 B5  returns 0x02 (0000ms, 2899ms total)
T40D0 597:765 JLINK_ReadMemEx(0x0800069E, 0x0002 Bytes, ..., Flags = 0x02000000) -- Read from C cache (2 bytes @ 0x0800069E) - Data: E1 20  returns 0x02 (0000ms, 2899ms total)
T39BC 598:521 JLINK_ReadMemEx(0x0800069C, 0x0002 Bytes, ..., Flags = 0x02000000) -- Read from C cache (2 bytes @ 0x0800069C) - Data: 10 B5  returns 0x02 (0001ms, 2900ms total)
T39BC 598:522 JLINK_Step() -- Read from C cache (2 bytes @ 0x0800069C) -- CPU_WriteMem(8 bytes @ 0x20000610) -- Simulated  returns 0x00 (0001ms, 2901ms total)
T39BC 598:523 JLINK_ReadReg(R15 (PC))  returns 0x0800069E (0000ms, 2901ms total)
T39BC 598:523 JLINK_ReadReg(XPSR)  returns 0x61000000 (0000ms, 2901ms total)
T39BC 598:523 JLINK_ReadReg(R0)  returns 0x08002D59 (0000ms, 2901ms total)
T39BC 598:523 JLINK_ReadReg(R1)  returns 0x20000618 (0000ms, 2901ms total)
T39BC 598:523 JLINK_ReadReg(R2)  returns 0x00000000 (0000ms, 2901ms total)
T39BC 598:523 JLINK_ReadReg(R3)  returns 0x080029FF (0000ms, 2901ms total)
T39BC 598:523 JLINK_ReadReg(R4)  returns 0x080032A0 (0000ms, 2901ms total)
T39BC 598:523 JLINK_ReadReg(R5)  returns 0x00000001 (0000ms, 2901ms total)
T39BC 598:523 JLINK_ReadReg(R6)  returns 0x080032A0 (0000ms, 2901ms total)
T39BC 598:523 JLINK_ReadReg(R7)  returns 0xFFFFFFFF (0000ms, 2901ms total)
T39BC 598:523 JLINK_ReadReg(R8)  returns 0xFFFFFFFF (0000ms, 2901ms total)
T39BC 598:523 JLINK_ReadReg(R9)  returns 0xFFFFFFFF (0000ms, 2901ms total)
T39BC 598:523 JLINK_ReadReg(R10)  returns 0xFFFFFFFF (0001ms, 2902ms total)
T39BC 598:524 JLINK_ReadReg(R11)  returns 0xFFFFFFFF (0000ms, 2902ms total)
T39BC 598:524 JLINK_ReadReg(R12)  returns 0xFFFFFFFF (0000ms, 2902ms total)
T39BC 598:524 JLINK_ReadReg(R13 (SP))  returns 0x20000610 (0000ms, 2902ms total)
T39BC 598:524 JLINK_ReadReg(R14)  returns 0x08002D5D (0000ms, 2902ms total)
T39BC 598:524 JLINK_ReadReg(R15 (PC))  returns 0x0800069E (0000ms, 2902ms total)
T39BC 598:524 JLINK_ReadReg(XPSR)  returns 0x61000000 (0000ms, 2902ms total)
T39BC 598:524 JLINK_ReadReg(MSP)  returns 0x20000610 (0000ms, 2902ms total)
T39BC 598:524 JLINK_ReadReg(PSP)  returns 0xFFFFFFFC (0000ms, 2902ms total)
T39BC 598:524 JLINK_ReadReg(CFBP)  returns 0x00000000 (0000ms, 2902ms total)
T40D0 598:524 JLINK_ReadMemEx(0x20000614, 0x0004 Bytes, ..., Flags = 0x02000000) -- CPU_ReadMem(64 bytes @ 0x20000600) -- Updating C cache (64 bytes @ 0x20000600) -- Read from C cache (4 bytes @ 0x20000614) - Data: 5D 2D 00 08  returns 0x04 (0001ms, 2903ms total)
T40D0 598:525 JLINK_ReadMemEx(0x20000610, 0x0004 Bytes, ..., Flags = 0x02000000) -- Read from C cache (4 bytes @ 0x20000610) - Data: A0 32 00 08  returns 0x04 (0000ms, 2903ms total)
T40D0 598:525 JLINK_ReadMemEx(0x20000614, 0x0004 Bytes, ..., Flags = 0x02000000) -- Read from C cache (4 bytes @ 0x20000614) - Data: 5D 2D 00 08  returns 0x04 (0000ms, 2903ms total)
T40D0 598:526 JLINK_ReadMemEx(0x48000000, 0x0014 Bytes, ..., Flags = 0x02000004) -- CPU_ReadMem(20 bytes @ 0x48000000) - Data: 00 00 00 28 00 00 00 28 00 00 00 28 00 00 00 28 ...  returns 0x14 (0000ms, 2903ms total)
T40D0 598:526 JLINK_ReadMemEx(0x48000014, 0x0004 Bytes, ..., Flags = 0x02000004) -- CPU_ReadMem(4 bytes @ 0x48000014) - Data: 00 00 00 28  returns 0x04 (0001ms, 2904ms total)
T40D0 598:527 JLINK_ReadMemEx(0x4800001C, 0x0008 Bytes, ..., Flags = 0x02000004) -- CPU_ReadMem(8 bytes @ 0x4800001C) - Data: 00 00 00 28 00 00 00 28  returns 0x08 (0000ms, 2904ms total)
T40D0 598:527 JLINK_ReadMemEx(0x48000024, 0x0004 Bytes, ..., Flags = 0x02000004) -- CPU_ReadMem(4 bytes @ 0x48000024) - Data: 00 00 00 28  returns 0x04 (0001ms, 2905ms total)
T40D0 598:533 JLINK_ReadMemEx(0x0800069E, 0x0002 Bytes, ..., Flags = 0x02000000) -- Read from C cache (2 bytes @ 0x0800069E) - Data: E1 20  returns 0x02 (0000ms, 2905ms total)
T40D0 598:533 JLINK_ReadMemEx(0x080006A0, 0x003C Bytes, ..., Flags = 0x02000000) -- Read from C cache (60 bytes @ 0x080006A0) - Data: 40 02 02 F0 D1 F8 7D 20 C0 00 01 F0 2D F9 FF 20 ...  returns 0x3C (0000ms, 2905ms total)
T40D0 598:533 JLINK_ReadMemEx(0x080006A0, 0x0002 Bytes, ..., Flags = 0x02000000) -- Read from C cache (2 bytes @ 0x080006A0) - Data: 40 02  returns 0x02 (0000ms, 2905ms total)
T40D0 598:533 JLINK_ReadMemEx(0x080006A0, 0x003C Bytes, ..., Flags = 0x02000000) -- Read from C cache (60 bytes @ 0x080006A0) - Data: 40 02 02 F0 D1 F8 7D 20 C0 00 01 F0 2D F9 FF 20 ...  returns 0x3C (0000ms, 2905ms total)
T40D0 598:533 JLINK_ReadMemEx(0x080006A0, 0x0002 Bytes, ..., Flags = 0x02000000) -- Read from C cache (2 bytes @ 0x080006A0) - Data: 40 02  returns 0x02 (0000ms, 2905ms total)
T40D0 598:533 JLINK_ReadMemEx(0x080006A2, 0x0002 Bytes, ..., Flags = 0x02000000) -- Read from C cache (2 bytes @ 0x080006A2) - Data: 02 F0  returns 0x02 (0000ms, 2905ms total)
T40D0 598:533 JLINK_ReadMemEx(0x080006A2, 0x0002 Bytes, ..., Flags = 0x02000000) -- Read from C cache (2 bytes @ 0x080006A2) - Data: 02 F0  returns 0x02 (0001ms, 2906ms total)
T40D0 598:534 JLINK_ReadMemEx(0x080006A4, 0x003C Bytes, ..., Flags = 0x02000000) -- Read from C cache (60 bytes @ 0x080006A4) - Data: D1 F8 7D 20 C0 00 01 F0 2D F9 FF 20 00 21 EB 30 ...  returns 0x3C (0000ms, 2906ms total)
T40D0 598:534 JLINK_ReadMemEx(0x080006A4, 0x0002 Bytes, ..., Flags = 0x02000000) -- Read from C cache (2 bytes @ 0x080006A4) - Data: D1 F8  returns 0x02 (0000ms, 2906ms total)
T39BC 598:994 JLINK_ReadMemEx(0x0800069E, 0x0002 Bytes, ..., Flags = 0x02000000) -- Read from C cache (2 bytes @ 0x0800069E) - Data: E1 20  returns 0x02 (0000ms, 2906ms total)
T39BC 598:994 JLINK_Step() -- Read from C cache (2 bytes @ 0x0800069E) -- Simulated  returns 0x00 (0000ms, 2906ms total)
T39BC 598:994 JLINK_ReadReg(R15 (PC))  returns 0x080006A0 (0000ms, 2906ms total)
T39BC 598:994 JLINK_ReadReg(XPSR)  returns 0x21000000 (0000ms, 2906ms total)
T39BC 598:994 JLINK_Step() -- Read from C cache (2 bytes @ 0x080006A0) -- Simulated  returns 0x00 (0000ms, 2906ms total)
T39BC 598:994 JLINK_ReadReg(R15 (PC))  returns 0x080006A2 (0001ms, 2907ms total)
T39BC 598:995 JLINK_ReadReg(XPSR)  returns 0x01000000 (0000ms, 2907ms total)
T39BC 598:995 JLINK_Step() -- Read from C cache (2 bytes @ 0x080006A2) -- Read from C cache (2 bytes @ 0x080006A4) -- Simulated  returns 0x00 (0000ms, 2907ms total)
T39BC 598:995 JLINK_ReadReg(R15 (PC))  returns 0x08002848 (0000ms, 2907ms total)
T39BC 598:995 JLINK_ReadReg(XPSR)  returns 0x01000000 (0000ms, 2907ms total)
T39BC 598:995 JLINK_ReadReg(R0)  returns 0x0001C200 (0000ms, 2907ms total)
T39BC 598:995 JLINK_ReadReg(R1)  returns 0x20000618 (0000ms, 2907ms total)
T39BC 598:995 JLINK_ReadReg(R2)  returns 0x00000000 (0000ms, 2907ms total)
T39BC 598:995 JLINK_ReadReg(R3)  returns 0x080029FF (0000ms, 2907ms total)
T39BC 598:996 JLINK_ReadReg(R4)  returns 0x080032A0 (0000ms, 2908ms total)
T39BC 598:996 JLINK_ReadReg(R5)  returns 0x00000001 (0000ms, 2908ms total)
T39BC 598:996 JLINK_ReadReg(R6)  returns 0x080032A0 (0000ms, 2908ms total)
T39BC 598:996 JLINK_ReadReg(R7)  returns 0xFFFFFFFF (0000ms, 2908ms total)
T39BC 598:996 JLINK_ReadReg(R8)  returns 0xFFFFFFFF (0000ms, 2908ms total)
T39BC 598:996 JLINK_ReadReg(R9)  returns 0xFFFFFFFF (0000ms, 2908ms total)
T39BC 598:996 JLINK_ReadReg(R10)  returns 0xFFFFFFFF (0000ms, 2908ms total)
T39BC 598:996 JLINK_ReadReg(R11)  returns 0xFFFFFFFF (0000ms, 2908ms total)
T39BC 598:996 JLINK_ReadReg(R12)  returns 0xFFFFFFFF (0000ms, 2908ms total)
T39BC 598:996 JLINK_ReadReg(R13 (SP))  returns 0x20000610 (0001ms, 2909ms total)
T39BC 598:997 JLINK_ReadReg(R14)  returns 0x080006A7 (0000ms, 2909ms total)
T39BC 598:997 JLINK_ReadReg(R15 (PC))  returns 0x08002848 (0000ms, 2909ms total)
T39BC 598:997 JLINK_ReadReg(XPSR)  returns 0x01000000 (0000ms, 2909ms total)
T39BC 598:997 JLINK_ReadReg(MSP)  returns 0x20000610 (0000ms, 2909ms total)
T39BC 598:997 JLINK_ReadReg(PSP)  returns 0xFFFFFFFC (0000ms, 2909ms total)
T39BC 598:997 JLINK_ReadReg(CFBP)  returns 0x00000000 (0000ms, 2909ms total)
T40D0 598:998 JLINK_ReadMemEx(0x20000614, 0x0004 Bytes, ..., Flags = 0x02000000) -- Read from C cache (4 bytes @ 0x20000614) - Data: 5D 2D 00 08  returns 0x04 (0000ms, 2909ms total)
T40D0 598:998 JLINK_ReadMemEx(0x20000610, 0x0004 Bytes, ..., Flags = 0x02000000) -- Read from C cache (4 bytes @ 0x20000610) - Data: A0 32 00 08  returns 0x04 (0000ms, 2909ms total)
T40D0 598:998 JLINK_ReadMemEx(0x20000614, 0x0004 Bytes, ..., Flags = 0x02000000) -- Read from C cache (4 bytes @ 0x20000614) - Data: 5D 2D 00 08  returns 0x04 (0000ms, 2909ms total)
T40D0 599:005 JLINK_ReadMemEx(0x48000000, 0x0014 Bytes, ..., Flags = 0x02000004) -- CPU_ReadMem(20 bytes @ 0x48000000) - Data: 00 00 00 28 00 00 00 28 00 00 00 28 00 00 00 28 ...  returns 0x14 (0001ms, 2910ms total)
T40D0 599:006 JLINK_ReadMemEx(0x48000014, 0x0004 Bytes, ..., Flags = 0x02000004) -- CPU_ReadMem(4 bytes @ 0x48000014) - Data: 00 00 00 28  returns 0x04 (0000ms, 2910ms total)
T40D0 599:006 JLINK_ReadMemEx(0x4800001C, 0x0008 Bytes, ..., Flags = 0x02000004) -- CPU_ReadMem(8 bytes @ 0x4800001C) - Data: 00 00 00 28 00 00 00 28  returns 0x08 (0001ms, 2911ms total)
T40D0 599:007 JLINK_ReadMemEx(0x48000024, 0x0004 Bytes, ..., Flags = 0x02000004) -- CPU_ReadMem(4 bytes @ 0x48000024) - Data: 00 00 00 28  returns 0x04 (0000ms, 2911ms total)
T40D0 599:010 JLINK_ReadMemEx(0x08002848, 0x003C Bytes, ..., Flags = 0x02000000) -- CPU_ReadMem(128 bytes @ 0x08002840) -- Updating C cache (128 bytes @ 0x08002840) -- Read from C cache (60 bytes @ 0x08002848) - Data: F0 B5 06 46 01 21 89 B0 48 04 FE F7 3D FE 09 27 ...  returns 0x3C (0001ms, 2912ms total)
T40D0 599:011 JLINK_ReadMemEx(0x08002848, 0x0002 Bytes, ..., Flags = 0x02000000) -- Read from C cache (2 bytes @ 0x08002848) - Data: F0 B5  returns 0x02 (0000ms, 2912ms total)
T40D0 599:011 JLINK_ReadMemEx(0x0800284A, 0x0002 Bytes, ..., Flags = 0x02000000) -- Read from C cache (2 bytes @ 0x0800284A) - Data: 06 46  returns 0x02 (0000ms, 2912ms total)
T40D0 599:011 JLINK_ReadMemEx(0x0800284A, 0x0002 Bytes, ..., Flags = 0x02000000) -- Read from C cache (2 bytes @ 0x0800284A) - Data: 06 46  returns 0x02 (0000ms, 2912ms total)
T40D0 599:012 JLINK_ReadMemEx(0x0800284C, 0x003C Bytes, ..., Flags = 0x02000000) -- Read from C cache (60 bytes @ 0x0800284C) - Data: 01 21 89 B0 48 04 FE F7 3D FE 09 27 FF 06 01 22 ...  returns 0x3C (0000ms, 2913ms total)
T40D0 599:012 JLINK_ReadMemEx(0x0800284C, 0x0002 Bytes, ..., Flags = 0x02000000) -- Read from C cache (2 bytes @ 0x0800284C) - Data: 01 21  returns 0x02 (0000ms, 2913ms total)
T39BC 599:249 JLINK_ReadMemEx(0x08002848, 0x0002 Bytes, ..., Flags = 0x02000000) -- Read from C cache (2 bytes @ 0x08002848) - Data: F0 B5  returns 0x02 (0000ms, 2913ms total)
T39BC 599:249 JLINK_Step() -- Read from C cache (2 bytes @ 0x08002848) -- CPU_WriteMem(20 bytes @ 0x200005FC) -- Simulated  returns 0x00 (0001ms, 2914ms total)
T39BC 599:250 JLINK_ReadReg(R15 (PC))  returns 0x0800284A (0000ms, 2914ms total)
T39BC 599:250 JLINK_ReadReg(XPSR)  returns 0x01000000 (0000ms, 2914ms total)
T39BC 599:250 JLINK_Step() -- Read from C cache (2 bytes @ 0x0800284A) -- Simulated  returns 0x00 (0000ms, 2914ms total)
T39BC 599:250 JLINK_ReadReg(R15 (PC))  returns 0x0800284C (0001ms, 2915ms total)
T39BC 599:251 JLINK_ReadReg(XPSR)  returns 0x01000000 (0000ms, 2915ms total)
T39BC 599:251 JLINK_ReadReg(R0)  returns 0x0001C200 (0000ms, 2915ms total)
T39BC 599:251 JLINK_ReadReg(R1)  returns 0x20000618 (0000ms, 2915ms total)
T39BC 599:251 JLINK_ReadReg(R2)  returns 0x00000000 (0000ms, 2915ms total)
T39BC 599:251 JLINK_ReadReg(R3)  returns 0x080029FF (0000ms, 2915ms total)
T39BC 599:251 JLINK_ReadReg(R4)  returns 0x080032A0 (0000ms, 2915ms total)
T39BC 599:251 JLINK_ReadReg(R5)  returns 0x00000001 (0000ms, 2915ms total)
T39BC 599:251 JLINK_ReadReg(R6)  returns 0x0001C200 (0000ms, 2915ms total)
T39BC 599:251 JLINK_ReadReg(R7)  returns 0xFFFFFFFF (0000ms, 2915ms total)
T39BC 599:251 JLINK_ReadReg(R8)  returns 0xFFFFFFFF (0000ms, 2915ms total)
T39BC 599:251 JLINK_ReadReg(R9)  returns 0xFFFFFFFF (0000ms, 2915ms total)
T39BC 599:251 JLINK_ReadReg(R10)  returns 0xFFFFFFFF (0000ms, 2915ms total)
T39BC 599:251 JLINK_ReadReg(R11)  returns 0xFFFFFFFF (0001ms, 2916ms total)
T39BC 599:252 JLINK_ReadReg(R12)  returns 0xFFFFFFFF (0000ms, 2916ms total)
T39BC 599:252 JLINK_ReadReg(R13 (SP))  returns 0x200005FC (0000ms, 2916ms total)
T39BC 599:252 JLINK_ReadReg(R14)  returns 0x080006A7 (0000ms, 2916ms total)
T39BC 599:252 JLINK_ReadReg(R15 (PC))  returns 0x0800284C (0000ms, 2916ms total)
T39BC 599:252 JLINK_ReadReg(XPSR)  returns 0x01000000 (0000ms, 2916ms total)
T39BC 599:252 JLINK_ReadReg(MSP)  returns 0x200005FC (0000ms, 2916ms total)
T39BC 599:252 JLINK_ReadReg(PSP)  returns 0xFFFFFFFC (0000ms, 2916ms total)
T39BC 599:252 JLINK_ReadReg(CFBP)  returns 0x00000000 (0000ms, 2916ms total)
T40D0 599:252 JLINK_ReadMemEx(0x2000060C, 0x0004 Bytes, ..., Flags = 0x02000000) -- CPU_ReadMem(64 bytes @ 0x20000600) -- Updating C cache (64 bytes @ 0x20000600) -- Read from C cache (4 bytes @ 0x2000060C) - Data: A7 06 00 08  returns 0x04 (0001ms, 2917ms total)
T40D0 599:253 JLINK_ReadMemEx(0x200005FC, 0x0004 Bytes, ..., Flags = 0x02000000) -- CPU_ReadMem(64 bytes @ 0x200005C0) -- Updating C cache (64 bytes @ 0x200005C0) -- Read from C cache (4 bytes @ 0x200005FC) - Data: A0 32 00 08  returns 0x04 (0001ms, 2918ms total)
T40D0 599:254 JLINK_ReadMemEx(0x20000600, 0x0004 Bytes, ..., Flags = 0x02000000) -- Read from C cache (4 bytes @ 0x20000600) - Data: 01 00 00 00  returns 0x04 (0000ms, 2918ms total)
T40D0 599:254 JLINK_ReadMemEx(0x20000604, 0x0004 Bytes, ..., Flags = 0x02000000) -- Read from C cache (4 bytes @ 0x20000604) - Data: A0 32 00 08  returns 0x04 (0000ms, 2918ms total)
T40D0 599:255 JLINK_ReadMemEx(0x20000608, 0x0004 Bytes, ..., Flags = 0x02000000) -- Read from C cache (4 bytes @ 0x20000608) - Data: FF FF FF FF  returns 0x04 (0000ms, 2919ms total)
T40D0 599:255 JLINK_ReadMemEx(0x2000060C, 0x0004 Bytes, ..., Flags = 0x02000000) -- Read from C cache (4 bytes @ 0x2000060C) - Data: A7 06 00 08  returns 0x04 (0000ms, 2919ms total)
T40D0 599:255 JLINK_ReadMemEx(0x20000614, 0x0004 Bytes, ..., Flags = 0x02000000) -- Read from C cache (4 bytes @ 0x20000614) - Data: 5D 2D 00 08  returns 0x04 (0000ms, 2919ms total)
T40D0 599:255 JLINK_ReadMemEx(0x20000610, 0x0004 Bytes, ..., Flags = 0x02000000) -- Read from C cache (4 bytes @ 0x20000610) - Data: A0 32 00 08  returns 0x04 (0000ms, 2919ms total)
T40D0 599:255 JLINK_ReadMemEx(0x20000614, 0x0004 Bytes, ..., Flags = 0x02000000) -- Read from C cache (4 bytes @ 0x20000614) - Data: 5D 2D 00 08  returns 0x04 (0000ms, 2919ms total)
T40D0 599:255 JLINK_ReadMemEx(0x48000000, 0x0014 Bytes, ..., Flags = 0x02000004) -- CPU_ReadMem(20 bytes @ 0x48000000) - Data: 00 00 00 28 00 00 00 28 00 00 00 28 00 00 00 28 ...  returns 0x14 (0001ms, 2920ms total)
T40D0 599:256 JLINK_ReadMemEx(0x48000014, 0x0004 Bytes, ..., Flags = 0x02000004) -- CPU_ReadMem(4 bytes @ 0x48000014) - Data: 00 00 00 28  returns 0x04 (0000ms, 2920ms total)
T40D0 599:256 JLINK_ReadMemEx(0x4800001C, 0x0008 Bytes, ..., Flags = 0x02000004) -- CPU_ReadMem(8 bytes @ 0x4800001C) - Data: 00 00 00 28 00 00 00 28  returns 0x08 (0001ms, 2921ms total)
T40D0 599:257 JLINK_ReadMemEx(0x48000024, 0x0004 Bytes, ..., Flags = 0x02000004) -- CPU_ReadMem(4 bytes @ 0x48000024) - Data: 00 00 00 28  returns 0x04 (0000ms, 2921ms total)
T40D0 599:260 JLINK_ReadMemEx(0x0800284C, 0x003C Bytes, ..., Flags = 0x02000000) -- Read from C cache (60 bytes @ 0x0800284C) - Data: 01 21 89 B0 48 04 FE F7 3D FE 09 27 FF 06 01 22 ...  returns 0x3C (0000ms, 2921ms total)
T40D0 599:260 JLINK_ReadMemEx(0x0800284C, 0x0002 Bytes, ..., Flags = 0x02000000) -- Read from C cache (2 bytes @ 0x0800284C) - Data: 01 21  returns 0x02 (0000ms, 2921ms total)
T40D0 599:260 JLINK_ReadMemEx(0x0800284E, 0x0002 Bytes, ..., Flags = 0x02000000) -- Read from C cache (2 bytes @ 0x0800284E) - Data: 89 B0  returns 0x02 (0000ms, 2921ms total)
T40D0 599:260 JLINK_ReadMemEx(0x0800284E, 0x0002 Bytes, ..., Flags = 0x02000000) -- Read from C cache (2 bytes @ 0x0800284E) - Data: 89 B0  returns 0x02 (0000ms, 2921ms total)
T40D0 599:260 JLINK_ReadMemEx(0x08002850, 0x003C Bytes, ..., Flags = 0x02000000) -- Read from C cache (60 bytes @ 0x08002850) - Data: 48 04 FE F7 3D FE 09 27 FF 06 01 22 0F 21 38 46 ...  returns 0x3C (0000ms, 2921ms total)
T40D0 599:260 JLINK_ReadMemEx(0x08002850, 0x0002 Bytes, ..., Flags = 0x02000000) -- Read from C cache (2 bytes @ 0x08002850) - Data: 48 04  returns 0x02 (0001ms, 2922ms total)
T40D0 599:261 JLINK_ReadMemEx(0x08002850, 0x003C Bytes, ..., Flags = 0x02000000) -- Read from C cache (60 bytes @ 0x08002850) - Data: 48 04 FE F7 3D FE 09 27 FF 06 01 22 0F 21 38 46 ...  returns 0x3C (0000ms, 2922ms total)
T40D0 599:261 JLINK_ReadMemEx(0x08002850, 0x0002 Bytes, ..., Flags = 0x02000000) -- Read from C cache (2 bytes @ 0x08002850) - Data: 48 04  returns 0x02 (0000ms, 2922ms total)
T40D0 599:261 JLINK_ReadMemEx(0x08002852, 0x0002 Bytes, ..., Flags = 0x02000000) -- Read from C cache (2 bytes @ 0x08002852) - Data: FE F7  returns 0x02 (0000ms, 2922ms total)
T39BC 599:599 JLINK_ReadMemEx(0x0800284C, 0x0002 Bytes, ..., Flags = 0x02000000) -- Read from C cache (2 bytes @ 0x0800284C) - Data: 01 21  returns 0x02 (0001ms, 2923ms total)
T39BC 599:600 JLINK_Step() -- Read from C cache (2 bytes @ 0x0800284C) -- Simulated  returns 0x00 (0000ms, 2923ms total)
T39BC 599:600 JLINK_ReadReg(R15 (PC))  returns 0x0800284E (0000ms, 2923ms total)
T39BC 599:600 JLINK_ReadReg(XPSR)  returns 0x01000000 (0000ms, 2923ms total)
T39BC 599:600 JLINK_Step() -- Read from C cache (2 bytes @ 0x0800284E) -- Simulated  returns 0x00 (0000ms, 2923ms total)
T39BC 599:600 JLINK_ReadReg(R15 (PC))  returns 0x08002850 (0000ms, 2923ms total)
T39BC 599:600 JLINK_ReadReg(XPSR)  returns 0x01000000 (0000ms, 2923ms total)
T39BC 599:600 JLINK_Step() -- Read from C cache (2 bytes @ 0x08002850) -- Simulated  returns 0x00 (0000ms, 2923ms total)
T39BC 599:600 JLINK_ReadReg(R15 (PC))  returns 0x08002852 (0000ms, 2923ms total)
T39BC 599:600 JLINK_ReadReg(XPSR)  returns 0x01000000 (0000ms, 2923ms total)
T39BC 599:600 JLINK_ReadMemEx(0x08002852, 0x0002 Bytes, ..., Flags = 0x02000000) -- Read from C cache (2 bytes @ 0x08002852) - Data: FE F7  returns 0x02 (0000ms, 2923ms total)
T39BC 599:600 JLINK_ReadMemEx(0x08002854, 0x003C Bytes, ..., Flags = 0x02000000) -- Read from C cache (60 bytes @ 0x08002854) - Data: 3D FE 09 27 FF 06 01 22 0F 21 38 46 FE F7 06 F8 ...  returns 0x3C (0001ms, 2924ms total)
T39BC 599:601 JLINK_ReadMemEx(0x08002854, 0x0002 Bytes, ..., Flags = 0x02000000) -- Read from C cache (2 bytes @ 0x08002854) - Data: 3D FE  returns 0x02 (0000ms, 2924ms total)
T39BC 599:601 JLINK_Step() -- Read from C cache (2 bytes @ 0x08002852) -- Read from C cache (2 bytes @ 0x08002854) -- Simulated  returns 0x00 (0000ms, 2924ms total)
T39BC 599:601 JLINK_ReadReg(R15 (PC))  returns 0x080014D0 (0000ms, 2924ms total)
T39BC 599:601 JLINK_ReadReg(XPSR)  returns 0x01000000 (0000ms, 2924ms total)
T39BC 599:601 JLINK_ReadReg(R0)  returns 0x00020000 (0000ms, 2924ms total)
T39BC 599:601 JLINK_ReadReg(R1)  returns 0x00000001 (0000ms, 2924ms total)
T39BC 599:601 JLINK_ReadReg(R2)  returns 0x00000000 (0000ms, 2924ms total)
T39BC 599:601 JLINK_ReadReg(R3)  returns 0x080029FF (0001ms, 2925ms total)
T39BC 599:602 JLINK_ReadReg(R4)  returns 0x080032A0 (0000ms, 2925ms total)
T39BC 599:602 JLINK_ReadReg(R5)  returns 0x00000001 (0000ms, 2925ms total)
T39BC 599:602 JLINK_ReadReg(R6)  returns 0x0001C200 (0000ms, 2925ms total)
T39BC 599:602 JLINK_ReadReg(R7)  returns 0xFFFFFFFF (0000ms, 2925ms total)
T39BC 599:602 JLINK_ReadReg(R8)  returns 0xFFFFFFFF (0000ms, 2925ms total)
T39BC 599:602 JLINK_ReadReg(R9)  returns 0xFFFFFFFF (0000ms, 2925ms total)
T39BC 599:602 JLINK_ReadReg(R10)  returns 0xFFFFFFFF (0000ms, 2925ms total)
T39BC 599:602 JLINK_ReadReg(R11)  returns 0xFFFFFFFF (0000ms, 2925ms total)
T39BC 599:602 JLINK_ReadReg(R12)  returns 0xFFFFFFFF (0000ms, 2925ms total)
T39BC 599:602 JLINK_ReadReg(R13 (SP))  returns 0x200005D8 (0000ms, 2925ms total)
T39BC 599:602 JLINK_ReadReg(R14)  returns 0x08002857 (0000ms, 2925ms total)
T39BC 599:602 JLINK_ReadReg(R15 (PC))  returns 0x080014D0 (0000ms, 2925ms total)
T39BC 599:602 JLINK_ReadReg(XPSR)  returns 0x01000000 (0000ms, 2925ms total)
T39BC 599:602 JLINK_ReadReg(MSP)  returns 0x200005D8 (0001ms, 2926ms total)
T39BC 599:603 JLINK_ReadReg(PSP)  returns 0xFFFFFFFC (0000ms, 2926ms total)
T39BC 599:603 JLINK_ReadReg(CFBP)  returns 0x00000000 (0000ms, 2926ms total)
T40D0 599:603 JLINK_ReadMemEx(0x2000060C, 0x0004 Bytes, ..., Flags = 0x02000000) -- Read from C cache (4 bytes @ 0x2000060C) - Data: A7 06 00 08  returns 0x04 (0000ms, 2926ms total)
T40D0 599:603 JLINK_ReadMemEx(0x200005FC, 0x0004 Bytes, ..., Flags = 0x02000000) -- Read from C cache (4 bytes @ 0x200005FC) - Data: A0 32 00 08  returns 0x04 (0000ms, 2926ms total)
T40D0 599:603 JLINK_ReadMemEx(0x20000600, 0x0004 Bytes, ..., Flags = 0x02000000) -- Read from C cache (4 bytes @ 0x20000600) - Data: 01 00 00 00  returns 0x04 (0000ms, 2926ms total)
T40D0 599:603 JLINK_ReadMemEx(0x20000604, 0x0004 Bytes, ..., Flags = 0x02000000) -- Read from C cache (4 bytes @ 0x20000604) - Data: A0 32 00 08  returns 0x04 (0000ms, 2926ms total)
T40D0 599:603 JLINK_ReadMemEx(0x20000608, 0x0004 Bytes, ..., Flags = 0x02000000) -- Read from C cache (4 bytes @ 0x20000608) - Data: FF FF FF FF  returns 0x04 (0000ms, 2926ms total)
T40D0 599:603 JLINK_ReadMemEx(0x2000060C, 0x0004 Bytes, ..., Flags = 0x02000000) -- Read from C cache (4 bytes @ 0x2000060C) - Data: A7 06 00 08  returns 0x04 (0000ms, 2926ms total)
T40D0 599:603 JLINK_ReadMemEx(0x20000614, 0x0004 Bytes, ..., Flags = 0x02000000) -- Read from C cache (4 bytes @ 0x20000614) - Data: 5D 2D 00 08  returns 0x04 (0001ms, 2927ms total)
T40D0 599:604 JLINK_ReadMemEx(0x20000610, 0x0004 Bytes, ..., Flags = 0x02000000) -- Read from C cache (4 bytes @ 0x20000610) - Data: A0 32 00 08  returns 0x04 (0000ms, 2927ms total)
T40D0 599:604 JLINK_ReadMemEx(0x20000614, 0x0004 Bytes, ..., Flags = 0x02000000) -- Read from C cache (4 bytes @ 0x20000614) - Data: 5D 2D 00 08  returns 0x04 (0000ms, 2927ms total)
T40D0 599:609 JLINK_ReadMemEx(0x48000000, 0x0014 Bytes, ..., Flags = 0x02000004) -- CPU_ReadMem(20 bytes @ 0x48000000) - Data: 00 00 00 28 00 00 00 28 00 00 00 28 00 00 00 28 ...  returns 0x14 (0001ms, 2928ms total)
T40D0 599:610 JLINK_ReadMemEx(0x48000014, 0x0004 Bytes, ..., Flags = 0x02000004) -- CPU_ReadMem(4 bytes @ 0x48000014) - Data: 00 00 00 28  returns 0x04 (0000ms, 2928ms total)
T40D0 599:610 JLINK_ReadMemEx(0x4800001C, 0x0008 Bytes, ..., Flags = 0x02000004) -- CPU_ReadMem(8 bytes @ 0x4800001C) - Data: 00 00 00 28 00 00 00 28  returns 0x08 (0001ms, 2929ms total)
T40D0 599:611 JLINK_ReadMemEx(0x48000024, 0x0004 Bytes, ..., Flags = 0x02000004) -- CPU_ReadMem(4 bytes @ 0x48000024) - Data: 00 00 00 28  returns 0x04 (0000ms, 2929ms total)
T40D0 599:615 JLINK_ReadMemEx(0x080014D0, 0x003C Bytes, ..., Flags = 0x02000000) -- CPU_ReadMem(128 bytes @ 0x080014C0) -- Updating C cache (128 bytes @ 0x080014C0) -- Read from C cache (60 bytes @ 0x080014D0) - Data: 70 B5 04 46 0D 48 0E 46 04 42 01 D1 00 2C 03 D1 ...  returns 0x3C (0002ms, 2931ms total)
T40D0 599:617 JLINK_ReadMemEx(0x080014D0, 0x0002 Bytes, ..., Flags = 0x02000000) -- Read from C cache (2 bytes @ 0x080014D0) - Data: 70 B5  returns 0x02 (0000ms, 2931ms total)
T40D0 599:617 JLINK_ReadMemEx(0x080014D2, 0x0002 Bytes, ..., Flags = 0x02000000) -- Read from C cache (2 bytes @ 0x080014D2) - Data: 04 46  returns 0x02 (0000ms, 2931ms total)
T40D0 599:617 JLINK_ReadMemEx(0x080014D2, 0x0002 Bytes, ..., Flags = 0x02000000) -- Read from C cache (2 bytes @ 0x080014D2) - Data: 04 46  returns 0x02 (0000ms, 2931ms total)
T40D0 599:617 JLINK_ReadMemEx(0x080014D4, 0x003C Bytes, ..., Flags = 0x02000000) -- Read from C cache (60 bytes @ 0x080014D4) - Data: 0D 48 0E 46 04 42 01 D1 00 2C 03 D1 0B 49 0C 48 ...  returns 0x3C (0000ms, 2931ms total)
T40D0 599:617 JLINK_ReadMemEx(0x080014D4, 0x0002 Bytes, ..., Flags = 0x02000000) -- Read from C cache (2 bytes @ 0x080014D4) - Data: 0D 48  returns 0x02 (0000ms, 2931ms total)
T39BC 599:896 JLINK_ReadMemEx(0x080014D0, 0x0002 Bytes, ..., Flags = 0x02000000) -- Read from C cache (2 bytes @ 0x080014D0) - Data: 70 B5  returns 0x02 (0000ms, 2931ms total)
T39BC 599:896 JLINK_Step() -- Read from C cache (2 bytes @ 0x080014D0) -- CPU_WriteMem(16 bytes @ 0x200005C8) -- Simulated  returns 0x00 (0001ms, 2932ms total)
T39BC 599:897 JLINK_ReadReg(R15 (PC))  returns 0x080014D2 (0000ms, 2932ms total)
T39BC 599:897 JLINK_ReadReg(XPSR)  returns 0x01000000 (0000ms, 2932ms total)
T39BC 599:897 JLINK_Step() -- Read from C cache (2 bytes @ 0x080014D2) -- Simulated  returns 0x00 (0000ms, 2932ms total)
T39BC 599:898 JLINK_ReadReg(R15 (PC))  returns 0x080014D4 (0000ms, 2933ms total)
T39BC 599:898 JLINK_ReadReg(XPSR)  returns 0x01000000 (0000ms, 2933ms total)
T39BC 599:898 JLINK_ReadReg(R0)  returns 0x00020000 (0000ms, 2933ms total)
T39BC 599:898 JLINK_ReadReg(R1)  returns 0x00000001 (0000ms, 2933ms total)
T39BC 599:898 JLINK_ReadReg(R2)  returns 0x00000000 (0000ms, 2933ms total)
T39BC 599:898 JLINK_ReadReg(R3)  returns 0x080029FF (0000ms, 2933ms total)
T39BC 599:898 JLINK_ReadReg(R4)  returns 0x00020000 (0000ms, 2933ms total)
T39BC 599:898 JLINK_ReadReg(R5)  returns 0x00000001 (0000ms, 2933ms total)
T39BC 599:898 JLINK_ReadReg(R6)  returns 0x0001C200 (0000ms, 2933ms total)
T39BC 599:898 JLINK_ReadReg(R7)  returns 0xFFFFFFFF (0000ms, 2933ms total)
T39BC 599:898 JLINK_ReadReg(R8)  returns 0xFFFFFFFF (0000ms, 2933ms total)
T39BC 599:898 JLINK_ReadReg(R9)  returns 0xFFFFFFFF (0000ms, 2933ms total)
T39BC 599:899 JLINK_ReadReg(R10)  returns 0xFFFFFFFF (0000ms, 2933ms total)
T39BC 599:899 JLINK_ReadReg(R11)  returns 0xFFFFFFFF (0000ms, 2933ms total)
T39BC 599:899 JLINK_ReadReg(R12)  returns 0xFFFFFFFF (0000ms, 2933ms total)
T39BC 599:899 JLINK_ReadReg(R13 (SP))  returns 0x200005C8 (0000ms, 2933ms total)
T39BC 599:899 JLINK_ReadReg(R14)  returns 0x08002857 (0000ms, 2933ms total)
T39BC 599:899 JLINK_ReadReg(R15 (PC))  returns 0x080014D4 (0000ms, 2933ms total)
T39BC 599:899 JLINK_ReadReg(XPSR)  returns 0x01000000 (0000ms, 2933ms total)
T39BC 599:899 JLINK_ReadReg(MSP)  returns 0x200005C8 (0000ms, 2933ms total)
T39BC 599:899 JLINK_ReadReg(PSP)  returns 0xFFFFFFFC (0000ms, 2933ms total)
T39BC 599:899 JLINK_ReadReg(CFBP)  returns 0x00000000 (0000ms, 2933ms total)
T40D0 599:899 JLINK_ReadMemEx(0x200005D4, 0x0004 Bytes, ..., Flags = 0x02000000) -- CPU_ReadMem(64 bytes @ 0x200005C0) -- Updating C cache (64 bytes @ 0x200005C0) -- Read from C cache (4 bytes @ 0x200005D4) - Data: 57 28 00 08  returns 0x04 (0001ms, 2934ms total)
T40D0 599:900 JLINK_ReadMemEx(0x200005C8, 0x0004 Bytes, ..., Flags = 0x02000000) -- Read from C cache (4 bytes @ 0x200005C8) - Data: A0 32 00 08  returns 0x04 (0001ms, 2935ms total)
T40D0 599:901 JLINK_ReadMemEx(0x200005CC, 0x0004 Bytes, ..., Flags = 0x02000000) -- Read from C cache (4 bytes @ 0x200005CC) - Data: 01 00 00 00  returns 0x04 (0000ms, 2935ms total)
T40D0 599:901 JLINK_ReadMemEx(0x200005D0, 0x0004 Bytes, ..., Flags = 0x02000000) -- Read from C cache (4 bytes @ 0x200005D0) - Data: 00 C2 01 00  returns 0x04 (0000ms, 2935ms total)
T40D0 599:901 JLINK_ReadMemEx(0x200005D4, 0x0004 Bytes, ..., Flags = 0x02000000) -- Read from C cache (4 bytes @ 0x200005D4) - Data: 57 28 00 08  returns 0x04 (0000ms, 2935ms total)
T40D0 599:901 JLINK_ReadMemEx(0x2000060C, 0x0004 Bytes, ..., Flags = 0x02000000) -- Read from C cache (4 bytes @ 0x2000060C) - Data: A7 06 00 08  returns 0x04 (0000ms, 2935ms total)
T40D0 599:901 JLINK_ReadMemEx(0x200005FC, 0x0004 Bytes, ..., Flags = 0x02000000) -- Read from C cache (4 bytes @ 0x200005FC) - Data: A0 32 00 08  returns 0x04 (0000ms, 2935ms total)
T40D0 599:901 JLINK_ReadMemEx(0x20000600, 0x0004 Bytes, ..., Flags = 0x02000000) -- Read from C cache (4 bytes @ 0x20000600) - Data: 01 00 00 00  returns 0x04 (0000ms, 2935ms total)
T40D0 599:901 JLINK_ReadMemEx(0x20000604, 0x0004 Bytes, ..., Flags = 0x02000000) -- Read from C cache (4 bytes @ 0x20000604) - Data: A0 32 00 08  returns 0x04 (0000ms, 2935ms total)
T40D0 599:901 JLINK_ReadMemEx(0x20000608, 0x0004 Bytes, ..., Flags = 0x02000000) -- Read from C cache (4 bytes @ 0x20000608) - Data: FF FF FF FF  returns 0x04 (0000ms, 2935ms total)
T40D0 599:901 JLINK_ReadMemEx(0x2000060C, 0x0004 Bytes, ..., Flags = 0x02000000) -- Read from C cache (4 bytes @ 0x2000060C) - Data: A7 06 00 08  returns 0x04 (0001ms, 2936ms total)
T40D0 599:902 JLINK_ReadMemEx(0x20000614, 0x0004 Bytes, ..., Flags = 0x02000000) -- Read from C cache (4 bytes @ 0x20000614) - Data: 5D 2D 00 08  returns 0x04 (0000ms, 2936ms total)
T40D0 599:902 JLINK_ReadMemEx(0x20000610, 0x0004 Bytes, ..., Flags = 0x02000000) -- Read from C cache (4 bytes @ 0x20000610) - Data: A0 32 00 08  returns 0x04 (0000ms, 2936ms total)
T40D0 599:902 JLINK_ReadMemEx(0x20000614, 0x0004 Bytes, ..., Flags = 0x02000000) -- Read from C cache (4 bytes @ 0x20000614) - Data: 5D 2D 00 08  returns 0x04 (0000ms, 2936ms total)
T40D0 599:902 JLINK_ReadMemEx(0x48000000, 0x0014 Bytes, ..., Flags = 0x02000004) -- CPU_ReadMem(20 bytes @ 0x48000000) - Data: 00 00 00 28 00 00 00 28 00 00 00 28 00 00 00 28 ...  returns 0x14 (0001ms, 2937ms total)
T40D0 599:903 JLINK_ReadMemEx(0x48000014, 0x0004 Bytes, ..., Flags = 0x02000004) -- CPU_ReadMem(4 bytes @ 0x48000014) - Data: 00 00 00 28  returns 0x04 (0001ms, 2938ms total)
